
T2CC8 000:350 SEGGER J-Link V4.96d Log File (0001ms, 0286ms total)
T2CC8 000:350 DLL Compiled: Jan 29 2015 11:45:37 (0001ms, 0286ms total)
T2CC8 000:350 Logging started @ 2020-08-11 00:22 (0001ms, 0286ms total)
T2CC8 000:351 JLINK_SetWarnOutHandler(...) (0001ms, 0287ms total)
T2CC8 000:352 JLINK_OpenEx(...)
Firmware: J-Link V9 compiled Oct  6 2017 16:38:28
Hardware: V9.40
S/N: 59425868
Feature(s): RDI, GDB, FlashDL, FlashBP, JFlash, RDDI  returns O.K. (0279ms, 0566ms total)
T2CC8 000:631 JLINK_SetErrorOutHandler(...) (0000ms, 0566ms total)
T2CC8 000:631 JLINK_ExecCommand("ProjectFile = "G:\STM32F407ZGT6\board\StephenZhou_STM32F407ZGT6_Keil_Pro\applications\board_test\JLinkSettings.ini"", ...)  returns 0x00 (0001ms, 0567ms total)
T2CC8 000:636 JLINK_ExecCommand("Device = STM32F407ZG", ...)Device "STM32F407ZG" selected.  returns 0x00 (0006ms, 0573ms total)
T2CC8 000:642 JLINK_ExecCommand("DisableConnectionTimeout", ...)  returns 0x01 (0000ms, 0573ms total)
T2CC8 000:642 JLINK_GetHardwareVersion()  returns 0x16F30 (0000ms, 0573ms total)
T2CC8 000:642 JLINK_GetDLLVersion()  returns 49604 (0000ms, 0573ms total)
T2CC8 000:642 JLINK_GetFirmwareString(...) (0000ms, 0573ms total)
T2CC8 000:656 JLINK_GetDLLVersion()  returns 49604 (0000ms, 0573ms total)
T2CC8 000:656 JLINK_GetCompileDateTime() (0000ms, 0573ms total)
T2CC8 000:661 JLINK_GetFirmwareString(...) (0000ms, 0573ms total)
T2CC8 000:670 JLINK_GetHardwareVersion()  returns 0x16F30 (0000ms, 0573ms total)
T2CC8 000:689 JLINK_TIF_Select(JLINKARM_TIF_SWD)  returns 0x00 (0005ms, 0578ms total)
T2CC8 000:694 JLINK_SetSpeed(5000) (0001ms, 0579ms total)
T2CC8 000:695 JLINK_GetId() >0x108 TIF>Found SWD-DP with ID 0x2BA01477 >0x0D TIF> >0x28 TIF> >0x0D TIF> >0x28 TIF> >0x0D TIF> >0x21 TIF> >0x0D TIF> >0x28 TIF> >0x0D TIF> >0x28 TIF> >0x0D TIF> >0x28 TIF> >0x0D TIF> >0x21 TIF> >0x0D TIF> >0x21 TIF> >0x0D TIF> >0x28 TIF> >0x0D TIF> >0x21 TIF> >0x0D TIF> >0x21 TIF> >0x0D TIF> >0x28 TIF> >0x0D TIF> >0x21 TIF> >0x0D TIF> >0x21 TIF> >0x108 TIF>Found SWD-DP with ID 0x2BA01477 >0x0D TIF> >0x21 TIF> >0x0D TIF> >0x28 TIF> >0x0D TIF> >0x28 TIF> >0x0D TIF> >0x21 TIF>
 >0x0D TIF> >0x28 TIF> >0x0D TIF> >0x21 TIF> >0x0D TIF> >0x21 TIF> >0x0D TIF> >0x21 TIF> >0x0D TIF> >0x21 TIF> >0x0D TIF> >0x28 TIF> >0x0D TIF> >0x28 TIF> >0x0D TIF> >0x21 TIF> >0x0D TIF> >0x28 TIF> >0x0D TIF> >0x28 TIF> >0x0D TIF> >0x28 TIF> >0x0D TIF> >0x21 TIF> >0x0D TIF> >0x21 TIF> >0x0D TIF> >0x28 TIF> >0x0D TIF> >0x21 TIF> >0x0D TIF> >0x21 TIF>Found Cortex-M4 r0p1, Little endian. -- CPU_WriteMem(4 bytes @ 0xE0002000) -- CPU_ReadMem(4 bytes @ 0xE000EDF0) -- CPU_ReadMem(4 bytes @ 0xE0002000)
FPUnit: 6 code (BP) slots and 2 literal slots -- CPU_ReadMem(4 bytes @ 0xE000EDFC) -- CPU_ReadMem(4 bytes @ 0xE0001000) -- CPU_WriteMem(4 bytes @ 0xE0001000) -- CPU_ReadMem(4 bytes @ 0xE000ED88) -- CPU_WriteMem(4 bytes @ 0xE000ED88) -- CPU_ReadMem(4 bytes @ 0xE000ED88) -- CPU_WriteMem(4 bytes @ 0xE000ED88) -- CPU_ReadMem(4 bytes @ 0xE00FF010)TPIU fitted. -- CPU_ReadMem(4 bytes @ 0xE00FF014)ETM fitted. -- CPU_ReadMem(4 bytes @ 0xE00FF018) >0x0D TIF> >0x21 TIF>  returns 0x2BA01477 (0106ms, 0685ms total)
T2CC8 000:801 JLINK_GetDLLVersion()  returns 49604 (0000ms, 0685ms total)
T2CC8 000:801 JLINK_CORE_GetFound()  returns 0xE0000FF (0001ms, 0686ms total)
T2CC8 000:802 JLINK_GetDebugInfo(0x100) -- Value=0xE00FF003  returns 0x00 (0000ms, 0686ms total)
T2CC8 000:804 JLINK_ReadMem (0xE00FF000, 0x0020 Bytes, ...) -- CPU is running -- CPU_ReadMem(32 bytes @ 0xE00FF000) - Data: 03 F0 F0 FF 03 20 F0 FF 03 30 F0 FF 03 10 F0 FF ...  returns 0x00 (0001ms, 0687ms total)
T2CC8 000:805 JLINK_ReadMem (0xE000EFF0, 0x0010 Bytes, ...) -- CPU is running -- CPU_ReadMem(16 bytes @ 0xE000EFF0) - Data: 0D 00 00 00 E0 00 00 00 05 00 00 00 B1 00 00 00  returns 0x00 (0001ms, 0688ms total)
T2CC8 000:806 JLINK_ReadMem (0xE000EFD0, 0x0020 Bytes, ...) -- CPU is running -- CPU_ReadMem(32 bytes @ 0xE000EFD0) - Data: 04 00 00 00 00 00 00 00 00 00 00 00 00 00 00 00 ...  returns 0x00 (0001ms, 0689ms total)
T2CC8 000:807 JLINK_ReadMem (0xE0001FF0, 0x0010 Bytes, ...) -- CPU is running -- CPU_ReadMem(16 bytes @ 0xE0001FF0) - Data: 0D 00 00 00 E0 00 00 00 05 00 00 00 B1 00 00 00  returns 0x00 (0001ms, 0690ms total)
T2CC8 000:808 JLINK_ReadMem (0xE0001FD0, 0x0020 Bytes, ...) -- CPU is running -- CPU_ReadMem(32 bytes @ 0xE0001FD0) - Data: 04 00 00 00 00 00 00 00 00 00 00 00 00 00 00 00 ...  returns 0x00 (0001ms, 0691ms total)
T2CC8 000:809 JLINK_ReadMem (0xE0002FF0, 0x0010 Bytes, ...) -- CPU is running -- CPU_ReadMem(16 bytes @ 0xE0002FF0) - Data: 0D 00 00 00 E0 00 00 00 05 00 00 00 B1 00 00 00  returns 0x00 (0001ms, 0692ms total)
T2CC8 000:810 JLINK_ReadMem (0xE0002FD0, 0x0020 Bytes, ...) -- CPU is running -- CPU_ReadMem(32 bytes @ 0xE0002FD0) - Data: 04 00 00 00 00 00 00 00 00 00 00 00 00 00 00 00 ...  returns 0x00 (0001ms, 0693ms total)
T2CC8 000:811 JLINK_ReadMem (0xE0000FF0, 0x0010 Bytes, ...) -- CPU is running -- CPU_ReadMem(16 bytes @ 0xE0000FF0) - Data: 0D 00 00 00 E0 00 00 00 05 00 00 00 B1 00 00 00  returns 0x00 (0001ms, 0694ms total)
T2CC8 000:812 JLINK_ReadMem (0xE0000FD0, 0x0020 Bytes, ...) -- CPU is running -- CPU_ReadMem(32 bytes @ 0xE0000FD0) - Data: 04 00 00 00 00 00 00 00 00 00 00 00 00 00 00 00 ...  returns 0x00 (0001ms, 0695ms total)
T2CC8 000:813 JLINK_ReadMem (0xE0040FF0, 0x0010 Bytes, ...) -- CPU is running -- CPU_ReadMem(16 bytes @ 0xE0040FF0) - Data: 0D 00 00 00 90 00 00 00 05 00 00 00 B1 00 00 00  returns 0x00 (0001ms, 0696ms total)
T2CC8 000:814 JLINK_ReadMem (0xE0040FD0, 0x0020 Bytes, ...) -- CPU is running -- CPU_ReadMem(32 bytes @ 0xE0040FD0) - Data: 04 00 00 00 00 00 00 00 00 00 00 00 00 00 00 00 ...  returns 0x00 (0001ms, 0697ms total)
T2CC8 000:815 JLINK_ReadMem (0xE0041FF0, 0x0010 Bytes, ...) -- CPU is running -- CPU_ReadMem(16 bytes @ 0xE0041FF0) - Data: 0D 00 00 00 90 00 00 00 05 00 00 00 B1 00 00 00  returns 0x00 (0001ms, 0698ms total)
T2CC8 000:816 JLINK_ReadMem (0xE0041FD0, 0x0020 Bytes, ...) -- CPU is running -- CPU_ReadMem(32 bytes @ 0xE0041FD0) - Data: 04 00 00 00 00 00 00 00 00 00 00 00 00 00 00 00 ...  returns 0x00 (0001ms, 0699ms total)
T2CC8 000:817 JLINK_ReadMemU32(0xE000EF40, 0x0001 Items, ...) -- CPU is running -- CPU_ReadMem(4 bytes @ 0xE000EF40) - Data: 21 00 11 10  returns 0x01 (0001ms, 0700ms total)
T2CC8 000:818 JLINK_ReadMemU32(0xE000EF44, 0x0001 Items, ...) -- CPU is running -- CPU_ReadMem(4 bytes @ 0xE000EF44) - Data: 11 00 00 11  returns 0x01 (0001ms, 0701ms total)
T2CC8 000:819 JLINK_ReadMemU32(0xE000ED00, 0x0001 Items, ...) -- CPU is running -- CPU_ReadMem(4 bytes @ 0xE000ED00) - Data: 41 C2 0F 41  returns 0x01 (0001ms, 0702ms total)
T2CC8 000:820 JLINK_SetResetType(JLINKARM_RESET_TYPE_NORMAL)  returns JLINKARM_RESET_TYPE_NORMAL (0000ms, 0702ms total)
T2CC8 000:820 JLINK_Reset() -- CPU is running -- CPU_WriteMem(4 bytes @ 0xE000EDF0) -- CPU is running -- CPU_WriteMem(4 bytes @ 0xE000EDFC) >0x35 TIF> -- CPU is running -- CPU_WriteMem(4 bytes @ 0xE000ED0C) -- CPU is running -- CPU_ReadMem(4 bytes @ 0xE000EDF0) -- CPU is running -- CPU_ReadMem(4 bytes @ 0xE000EDF0) -- CPU is running -- CPU_WriteMem(4 bytes @ 0xE000EDF0) -- CPU is running -- CPU_WriteMem(4 bytes @ 0xE000EDFC) -- CPU is running -- CPU_ReadMem(4 bytes @ 0xE000EDF0)
 -- CPU_WriteMem(4 bytes @ 0xE0002000) -- CPU_ReadMem(4 bytes @ 0xE000EDFC) -- CPU_ReadMem(4 bytes @ 0xE0001000) (0023ms, 0725ms total)
T2CC8 000:843 JLINK_Halt()  returns 0x00 (0000ms, 0725ms total)
T2CC8 000:843 JLINK_IsHalted()  returns TRUE (0000ms, 0725ms total)
T2CC8 000:843 JLINK_ReadMemU32(0xE000EDF0, 0x0001 Items, ...) -- CPU_ReadMem(4 bytes @ 0xE000EDF0) - Data: 03 00 03 00  returns 0x01 (0001ms, 0726ms total)
T2CC8 000:844 JLINK_WriteU32(0xE000EDF0, 0xA05F0003) -- CPU_WriteMem(4 bytes @ 0xE000EDF0)  returns 0x00 (0001ms, 0727ms total)
T2CC8 000:845 JLINK_WriteU32(0xE000EDFC, 0x01000000) -- CPU_WriteMem(4 bytes @ 0xE000EDFC)  returns 0x00 (0001ms, 0728ms total)
T2CC8 000:853 JLINK_GetHWStatus(...)  returns 0x00 (0001ms, 0729ms total)
T2CC8 000:873 JLINK_GetNumBPUnits(Type = 0xFFFFFF00)  returns 0x06 (0000ms, 0729ms total)
T2CC8 000:874 JLINK_GetNumBPUnits(Type = 0xF0)  returns 0x2000 (0000ms, 0729ms total)
T2CC8 000:874 JLINK_GetNumWPUnits()  returns 0x04 (0000ms, 0729ms total)
T2CC8 000:877 JLINK_GetSpeed()  returns 0xFA0 (0000ms, 0729ms total)
T2CC8 000:879 JLINK_ReadMemU32(0xE000E004, 0x0001 Items, ...) -- CPU_ReadMem(4 bytes @ 0xE000E004) - Data: 02 00 00 00  returns 0x01 (0002ms, 0731ms total)
T2CC8 000:881 JLINK_ReadMemU32(0xE000E004, 0x0001 Items, ...) -- CPU_ReadMem(4 bytes @ 0xE000E004) - Data: 02 00 00 00  returns 0x01 (0001ms, 0732ms total)
T2CC8 000:882 JLINK_WriteMem(0xE0001000, 0x001C Bytes, ...) - Data: 01 00 00 00 00 00 00 00 00 00 00 00 00 00 00 00 ... -- CPU_WriteMem(28 bytes @ 0xE0001000)  returns 0x1C (0001ms, 0733ms total)
T2CC8 000:883 JLINK_ReadMem (0xE0001000, 0x001C Bytes, ...) -- CPU_ReadMem(28 bytes @ 0xE0001000) - Data: 01 00 00 40 00 00 00 00 00 00 00 00 00 00 00 00 ...  returns 0x00 (0001ms, 0734ms total)
T2CC8 000:884 JLINK_Halt()  returns 0x00 (0000ms, 0734ms total)
T2CC8 000:884 JLINK_IsHalted()  returns TRUE (0000ms, 0734ms total)
T2CC8 000:887 JLINK_WriteMem(0x20000000, 0x0180 Bytes, ...) - Data: 00 BE 0A E0 0D 78 2D 06 68 40 08 24 40 00 00 D3 ... -- CPU_WriteMem(384 bytes @ 0x20000000)  returns 0x180 (0003ms, 0737ms total)
T2CC8 000:890 JLINK_WriteReg(R0, 0x08000000)  returns 0x00 (0000ms, 0737ms total)
T2CC8 000:890 JLINK_WriteReg(R1, 0x007A1200)  returns 0x00 (0000ms, 0737ms total)
T2CC8 000:890 JLINK_WriteReg(R2, 0x00000001)  returns 0x00 (0000ms, 0737ms total)
T2CC8 000:890 JLINK_WriteReg(R3, 0x00000000)  returns 0x00 (0000ms, 0737ms total)
T2CC8 000:890 JLINK_WriteReg(R4, 0x00000000)  returns 0x00 (0000ms, 0737ms total)
T2CC8 000:890 JLINK_WriteReg(R5, 0x00000000)  returns 0x00 (0000ms, 0737ms total)
T2CC8 000:890 JLINK_WriteReg(R6, 0x00000000)  returns 0x00 (0000ms, 0737ms total)
T2CC8 000:890 JLINK_WriteReg(R7, 0x00000000)  returns 0x00 (0000ms, 0737ms total)
T2CC8 000:890 JLINK_WriteReg(R8, 0x00000000)  returns 0x00 (0000ms, 0737ms total)
T2CC8 000:890 JLINK_WriteReg(R9, 0x2000017C)  returns 0x00 (0000ms, 0737ms total)
T2CC8 000:890 JLINK_WriteReg(R10, 0x00000000)  returns 0x00 (0000ms, 0737ms total)
T2CC8 000:890 JLINK_WriteReg(R11, 0x00000000)  returns 0x00 (0000ms, 0737ms total)
T2CC8 000:890 JLINK_WriteReg(R12, 0x00000000)  returns 0x00 (0000ms, 0737ms total)
T2CC8 000:890 JLINK_WriteReg(R13 (SP), 0x20001000)  returns 0x00 (0000ms, 0737ms total)
T2CC8 000:890 JLINK_WriteReg(R14, 0x20000001)  returns 0x00 (0000ms, 0737ms total)
T2CC8 000:890 JLINK_WriteReg(R15 (PC), 0x20000054)  returns 0x00 (0000ms, 0737ms total)
T2CC8 000:890 JLINK_WriteReg(XPSR, 0x01000000)  returns 0x00 (0000ms, 0737ms total)
T2CC8 000:890 JLINK_WriteReg(MSP, 0x20001000)  returns 0x00 (0000ms, 0737ms total)
T2CC8 000:890 JLINK_WriteReg(PSP, 0x20001000)  returns 0x00 (0000ms, 0737ms total)
T2CC8 000:890 JLINK_WriteReg(CFBP, 0x00000000)  returns 0x00 (0000ms, 0737ms total)
T2CC8 000:890 JLINK_SetBPEx(Addr = 0x20000000, Type = 0xFFFFFFF2) -- CPU_ReadMem(2 bytes @ 0x20000000)  returns 0x00000001 (0000ms, 0737ms total)
T2CC8 000:890 JLINK_Go() -- CPU_WriteMem(2 bytes @ 0x20000000) -- CPU_WriteMem(4 bytes @ 0xE0002008) -- CPU_WriteMem(4 bytes @ 0xE000200C) -- CPU_WriteMem(4 bytes @ 0xE0002010) -- CPU_WriteMem(4 bytes @ 0xE0002014) -- CPU_WriteMem(4 bytes @ 0xE0002018) -- CPU_WriteMem(4 bytes @ 0xE000201C) -- CPU_WriteMem(4 bytes @ 0xE0001004) (0007ms, 0744ms total)
T2CC8 000:897 JLINK_IsHalted() -- CPU_ReadMem(2 bytes @ 0x20000000)  returns TRUE (0008ms, 0752ms total)
T2CC8 000:905 JLINK_ReadReg(R15 (PC))  returns 0x20000000 (0000ms, 0744ms total)
T2CC8 000:905 JLINK_ClrBPEx(BPHandle = 0x00000001)  returns 0x00 (0000ms, 0744ms total)
T2CC8 000:905 JLINK_ReadReg(R0)  returns 0x00000000 (0000ms, 0744ms total)
T2CC8 000:905 JLINK_WriteReg(R0, 0x08000000)  returns 0x00 (0000ms, 0744ms total)
T2CC8 000:905 JLINK_WriteReg(R1, 0x00004000)  returns 0x00 (0000ms, 0744ms total)
T2CC8 000:905 JLINK_WriteReg(R2, 0x000000FF)  returns 0x00 (0000ms, 0744ms total)
T2CC8 000:905 JLINK_WriteReg(R3, 0x00000000)  returns 0x00 (0000ms, 0744ms total)
T2CC8 000:905 JLINK_WriteReg(R4, 0x00000000)  returns 0x00 (0000ms, 0744ms total)
T2CC8 000:905 JLINK_WriteReg(R5, 0x00000000)  returns 0x00 (0000ms, 0744ms total)
T2CC8 000:905 JLINK_WriteReg(R6, 0x00000000)  returns 0x00 (0000ms, 0744ms total)
T2CC8 000:905 JLINK_WriteReg(R7, 0x00000000)  returns 0x00 (0000ms, 0744ms total)
T2CC8 000:905 JLINK_WriteReg(R8, 0x00000000)  returns 0x00 (0000ms, 0744ms total)
T2CC8 000:905 JLINK_WriteReg(R9, 0x2000017C)  returns 0x00 (0000ms, 0744ms total)
T2CC8 000:905 JLINK_WriteReg(R10, 0x00000000)  returns 0x00 (0000ms, 0744ms total)
T2CC8 000:905 JLINK_WriteReg(R11, 0x00000000)  returns 0x00 (0000ms, 0744ms total)
T2CC8 000:905 JLINK_WriteReg(R12, 0x00000000)  returns 0x00 (0000ms, 0744ms total)
T2CC8 000:905 JLINK_WriteReg(R13 (SP), 0x20001000)  returns 0x00 (0000ms, 0744ms total)
T2CC8 000:905 JLINK_WriteReg(R14, 0x20000001)  returns 0x00 (0000ms, 0744ms total)
T2CC8 000:905 JLINK_WriteReg(R15 (PC), 0x20000020)  returns 0x00 (0000ms, 0744ms total)
T2CC8 000:905 JLINK_WriteReg(XPSR, 0x01000000)  returns 0x00 (0000ms, 0744ms total)
T2CC8 000:905 JLINK_WriteReg(MSP, 0x20001000)  returns 0x00 (0000ms, 0744ms total)
T2CC8 000:905 JLINK_WriteReg(PSP, 0x20001000)  returns 0x00 (0000ms, 0744ms total)
T2CC8 000:905 JLINK_WriteReg(CFBP, 0x00000000)  returns 0x00 (0000ms, 0744ms total)
T2CC8 000:905 JLINK_SetBPEx(Addr = 0x20000000, Type = 0xFFFFFFF2)  returns 0x00000002 (0000ms, 0744ms total)
T2CC8 000:905 JLINK_Go() (0002ms, 0746ms total)
T2CC8 000:907 JLINK_IsHalted() -- CPU_ReadMem(2 bytes @ 0x20000000)  returns TRUE (0009ms, 0755ms total)
T2CC8 000:916 JLINK_ReadReg(R15 (PC))  returns 0x20000000 (0000ms, 0746ms total)
T2CC8 000:916 JLINK_ClrBPEx(BPHandle = 0x00000002)  returns 0x00 (0000ms, 0746ms total)
T2CC8 000:916 JLINK_ReadReg(R0)  returns 0x00000001 (0000ms, 0746ms total)
T2CC8 000:916 JLINK_WriteReg(R0, 0x08000000)  returns 0x00 (0000ms, 0746ms total)
T2CC8 000:916 JLINK_WriteReg(R1, 0x00004000)  returns 0x00 (0000ms, 0746ms total)
T2CC8 000:916 JLINK_WriteReg(R2, 0x000000FF)  returns 0x00 (0000ms, 0746ms total)
T2CC8 000:916 JLINK_WriteReg(R3, 0x00000000)  returns 0x00 (0000ms, 0746ms total)
T2CC8 000:916 JLINK_WriteReg(R4, 0x00000000)  returns 0x00 (0000ms, 0746ms total)
T2CC8 000:916 JLINK_WriteReg(R5, 0x00000000)  returns 0x00 (0000ms, 0746ms total)
T2CC8 000:916 JLINK_WriteReg(R6, 0x00000000)  returns 0x00 (0000ms, 0746ms total)
T2CC8 000:916 JLINK_WriteReg(R7, 0x00000000)  returns 0x00 (0000ms, 0746ms total)
T2CC8 000:916 JLINK_WriteReg(R8, 0x00000000)  returns 0x00 (0000ms, 0746ms total)
T2CC8 000:916 JLINK_WriteReg(R9, 0x2000017C)  returns 0x00 (0000ms, 0746ms total)
T2CC8 000:916 JLINK_WriteReg(R10, 0x00000000)  returns 0x00 (0000ms, 0746ms total)
T2CC8 000:916 JLINK_WriteReg(R11, 0x00000000)  returns 0x00 (0000ms, 0746ms total)
T2CC8 000:916 JLINK_WriteReg(R12, 0x00000000)  returns 0x00 (0002ms, 0748ms total)
T2CC8 000:918 JLINK_WriteReg(R13 (SP), 0x20001000)  returns 0x00 (0000ms, 0748ms total)
T2CC8 000:918 JLINK_WriteReg(R14, 0x20000001)  returns 0x00 (0000ms, 0748ms total)
T2CC8 000:918 JLINK_WriteReg(R15 (PC), 0x200000BC)  returns 0x00 (0000ms, 0748ms total)
T2CC8 000:918 JLINK_WriteReg(XPSR, 0x01000000)  returns 0x00 (0000ms, 0748ms total)
T2CC8 000:918 JLINK_WriteReg(MSP, 0x20001000)  returns 0x00 (0000ms, 0748ms total)
T2CC8 000:918 JLINK_WriteReg(PSP, 0x20001000)  returns 0x00 (0000ms, 0748ms total)
T2CC8 000:918 JLINK_WriteReg(CFBP, 0x00000000)  returns 0x00 (0000ms, 0748ms total)
T2CC8 000:918 JLINK_SetBPEx(Addr = 0x20000000, Type = 0xFFFFFFF2)  returns 0x00000003 (0000ms, 0748ms total)
T2CC8 000:918 JLINK_Go() (0002ms, 0750ms total)
T2CC8 000:920 JLINK_IsHalted()  returns FALSE (0001ms, 0751ms total)
T2CC8 000:932 JLINK_IsHalted()  returns FALSE (0001ms, 0751ms total)
T2CC8 000:934 JLINK_IsHalted()  returns FALSE (0001ms, 0751ms total)
T2CC8 000:936 JLINK_IsHalted()  returns FALSE (0001ms, 0751ms total)
T2CC8 000:938 JLINK_IsHalted()  returns FALSE (0001ms, 0751ms total)
T2CC8 000:940 JLINK_IsHalted()  returns FALSE (0001ms, 0751ms total)
T2CC8 000:942 JLINK_IsHalted()  returns FALSE (0001ms, 0751ms total)
T2CC8 000:944 JLINK_IsHalted()  returns FALSE (0001ms, 0751ms total)
T2CC8 000:946 JLINK_IsHalted()  returns FALSE (0002ms, 0752ms total)
T2CC8 000:950 JLINK_IsHalted()  returns FALSE (0002ms, 0752ms total)
T2CC8 000:953 JLINK_IsHalted()  returns FALSE (0001ms, 0751ms total)
T2CC8 000:955 JLINK_IsHalted()  returns FALSE (0001ms, 0751ms total)
T2CC8 000:957 JLINK_IsHalted()  returns FALSE (0001ms, 0751ms total)
T2CC8 000:959 JLINK_IsHalted()  returns FALSE (0001ms, 0751ms total)
T2CC8 000:961 JLINK_IsHalted()  returns FALSE (0001ms, 0751ms total)
T2CC8 000:963 JLINK_IsHalted()  returns FALSE (0001ms, 0751ms total)
T2CC8 000:965 JLINK_IsHalted()  returns FALSE (0001ms, 0751ms total)
T2CC8 000:967 JLINK_IsHalted()  returns FALSE (0001ms, 0751ms total)
T2CC8 000:969 JLINK_IsHalted()  returns FALSE (0001ms, 0751ms total)
T2CC8 000:971 JLINK_IsHalted()  returns FALSE (0001ms, 0751ms total)
T2CC8 000:973 JLINK_IsHalted()  returns FALSE (0001ms, 0751ms total)
T2CC8 000:975 JLINK_IsHalted()  returns FALSE (0001ms, 0751ms total)
T2CC8 000:977 JLINK_IsHalted()  returns FALSE (0001ms, 0751ms total)
T2CC8 000:979 JLINK_IsHalted()  returns FALSE (0001ms, 0751ms total)
T2CC8 000:981 JLINK_IsHalted()  returns FALSE (0001ms, 0751ms total)
T2CC8 000:983 JLINK_IsHalted()  returns FALSE (0001ms, 0751ms total)
T2CC8 000:985 JLINK_IsHalted()  returns FALSE (0001ms, 0751ms total)
T2CC8 000:989 JLINK_IsHalted()  returns FALSE (0001ms, 0751ms total)
T2CC8 000:991 JLINK_IsHalted()  returns FALSE (0001ms, 0751ms total)
T2CC8 000:993 JLINK_IsHalted()  returns FALSE (0001ms, 0751ms total)
T2CC8 000:995 JLINK_IsHalted()  returns FALSE (0001ms, 0751ms total)
T2CC8 000:997 JLINK_IsHalted()  returns FALSE (0001ms, 0751ms total)
T2CC8 000:999 JLINK_IsHalted()  returns FALSE (0001ms, 0751ms total)
T2CC8 001:001 JLINK_IsHalted()  returns FALSE (0002ms, 0752ms total)
T2CC8 001:004 JLINK_IsHalted()  returns FALSE (0001ms, 0751ms total)
T2CC8 001:006 JLINK_IsHalted()  returns FALSE (0001ms, 0751ms total)
T2CC8 001:008 JLINK_IsHalted()  returns FALSE (0001ms, 0751ms total)
T2CC8 001:010 JLINK_IsHalted()  returns FALSE (0001ms, 0751ms total)
T2CC8 001:012 JLINK_IsHalted()  returns FALSE (0001ms, 0751ms total)
T2CC8 001:014 JLINK_IsHalted()  returns FALSE (0001ms, 0751ms total)
T2CC8 001:016 JLINK_IsHalted()  returns FALSE (0001ms, 0751ms total)
T2CC8 001:018 JLINK_IsHalted()  returns FALSE (0001ms, 0751ms total)
T2CC8 001:020 JLINK_IsHalted()  returns FALSE (0001ms, 0751ms total)
T2CC8 001:022 JLINK_IsHalted()  returns FALSE (0001ms, 0751ms total)
T2CC8 001:024 JLINK_IsHalted()  returns FALSE (0001ms, 0751ms total)
T2CC8 001:026 JLINK_IsHalted()  returns FALSE (0001ms, 0751ms total)
T2CC8 001:028 JLINK_IsHalted()  returns FALSE (0001ms, 0751ms total)
T2CC8 001:030 JLINK_IsHalted()  returns FALSE (0001ms, 0751ms total)
T2CC8 001:032 JLINK_IsHalted()  returns FALSE (0001ms, 0751ms total)
T2CC8 001:034 JLINK_IsHalted()  returns FALSE (0001ms, 0751ms total)
T2CC8 001:036 JLINK_IsHalted()  returns FALSE (0001ms, 0751ms total)
T2CC8 001:038 JLINK_IsHalted()  returns FALSE (0001ms, 0751ms total)
T2CC8 001:040 JLINK_IsHalted()  returns FALSE (0001ms, 0751ms total)
T2CC8 001:042 JLINK_IsHalted()  returns FALSE (0001ms, 0751ms total)
T2CC8 001:044 JLINK_IsHalted()  returns FALSE (0001ms, 0751ms total)
T2CC8 001:046 JLINK_IsHalted()  returns FALSE (0001ms, 0751ms total)
T2CC8 001:048 JLINK_IsHalted()  returns FALSE (0001ms, 0751ms total)
T2CC8 001:050 JLINK_IsHalted()  returns FALSE (0001ms, 0751ms total)
T2CC8 001:052 JLINK_IsHalted()  returns FALSE (0001ms, 0751ms total)
T2CC8 001:054 JLINK_IsHalted()  returns FALSE (0001ms, 0751ms total)
T2CC8 001:056 JLINK_IsHalted()  returns FALSE (0001ms, 0751ms total)
T2CC8 001:058 JLINK_IsHalted()  returns FALSE (0001ms, 0751ms total)
T2CC8 001:060 JLINK_IsHalted()  returns FALSE (0001ms, 0751ms total)
T2CC8 001:062 JLINK_IsHalted()  returns FALSE (0001ms, 0751ms total)
T2CC8 001:064 JLINK_IsHalted()  returns FALSE (0001ms, 0751ms total)
T2CC8 001:066 JLINK_IsHalted()  returns FALSE (0001ms, 0751ms total)
T2CC8 001:068 JLINK_IsHalted()  returns FALSE (0001ms, 0751ms total)
T2CC8 001:070 JLINK_IsHalted()  returns FALSE (0001ms, 0751ms total)
T2CC8 001:077 JLINK_IsHalted()  returns FALSE (0001ms, 0751ms total)
T2CC8 001:079 JLINK_IsHalted()  returns FALSE (0001ms, 0751ms total)
T2CC8 001:081 JLINK_IsHalted()  returns FALSE (0001ms, 0751ms total)
T2CC8 001:083 JLINK_IsHalted()  returns FALSE (0001ms, 0751ms total)
T2CC8 001:085 JLINK_IsHalted()  returns FALSE (0001ms, 0751ms total)
T2CC8 001:087 JLINK_IsHalted()  returns FALSE (0001ms, 0751ms total)
T2CC8 001:089 JLINK_IsHalted()  returns FALSE (0001ms, 0751ms total)
T2CC8 001:091 JLINK_IsHalted()  returns FALSE (0001ms, 0751ms total)
T2CC8 001:093 JLINK_IsHalted()  returns FALSE (0001ms, 0751ms total)
T2CC8 001:095 JLINK_IsHalted()  returns FALSE (0001ms, 0751ms total)
T2CC8 001:097 JLINK_IsHalted()  returns FALSE (0001ms, 0751ms total)
T2CC8 001:099 JLINK_IsHalted()  returns FALSE (0001ms, 0751ms total)
T2CC8 001:101 JLINK_IsHalted()  returns FALSE (0001ms, 0751ms total)
T2CC8 001:103 JLINK_IsHalted()  returns FALSE (0001ms, 0751ms total)
T2CC8 001:105 JLINK_IsHalted()  returns FALSE (0001ms, 0751ms total)
T2CC8 001:107 JLINK_IsHalted()  returns FALSE (0001ms, 0751ms total)
T2CC8 001:109 JLINK_IsHalted()  returns FALSE (0001ms, 0751ms total)
T2CC8 001:111 JLINK_IsHalted()  returns FALSE (0001ms, 0751ms total)
T2CC8 001:113 JLINK_IsHalted()  returns FALSE (0001ms, 0751ms total)
T2CC8 001:115 JLINK_IsHalted()  returns FALSE (0001ms, 0751ms total)
T2CC8 001:117 JLINK_IsHalted()  returns FALSE (0001ms, 0751ms total)
T2CC8 001:119 JLINK_IsHalted()  returns FALSE (0001ms, 0751ms total)
T2CC8 001:121 JLINK_IsHalted()  returns FALSE (0001ms, 0751ms total)
T2CC8 001:123 JLINK_IsHalted()  returns FALSE (0001ms, 0751ms total)
T2CC8 001:125 JLINK_IsHalted()  returns FALSE (0001ms, 0751ms total)
T2CC8 001:127 JLINK_IsHalted()  returns FALSE (0001ms, 0751ms total)
T2CC8 001:129 JLINK_IsHalted()  returns FALSE (0001ms, 0751ms total)
T2CC8 001:131 JLINK_IsHalted()  returns FALSE (0001ms, 0751ms total)
T2CC8 001:133 JLINK_IsHalted()  returns FALSE (0001ms, 0751ms total)
T2CC8 001:135 JLINK_IsHalted()  returns FALSE (0001ms, 0751ms total)
T2CC8 001:137 JLINK_IsHalted()  returns FALSE (0001ms, 0751ms total)
T2CC8 001:139 JLINK_IsHalted()  returns FALSE (0001ms, 0751ms total)
T2CC8 001:141 JLINK_IsHalted()  returns FALSE (0001ms, 0751ms total)
T2CC8 001:143 JLINK_IsHalted()  returns FALSE (0001ms, 0751ms total)
T2CC8 001:145 JLINK_IsHalted()  returns FALSE (0002ms, 0752ms total)
T2CC8 001:148 JLINK_IsHalted()  returns FALSE (0001ms, 0751ms total)
T2CC8 001:150 JLINK_IsHalted()  returns FALSE (0001ms, 0751ms total)
T2CC8 001:152 JLINK_IsHalted()  returns FALSE (0001ms, 0751ms total)
T2CC8 001:154 JLINK_IsHalted()  returns FALSE (0001ms, 0751ms total)
T2CC8 001:156 JLINK_IsHalted()  returns FALSE (0001ms, 0751ms total)
T2CC8 001:162 JLINK_IsHalted()  returns FALSE (0022ms, 0772ms total)
T2CC8 001:187 JLINK_IsHalted()  returns FALSE (0001ms, 0751ms total)
T2CC8 001:189 JLINK_IsHalted()  returns FALSE (0001ms, 0751ms total)
T2CC8 001:191 JLINK_IsHalted()  returns FALSE (0001ms, 0751ms total)
T2CC8 001:193 JLINK_IsHalted()  returns FALSE (0001ms, 0751ms total)
T2CC8 001:203 JLINK_IsHalted()  returns FALSE (0001ms, 0751ms total)
T2CC8 001:205 JLINK_IsHalted()  returns FALSE (0001ms, 0751ms total)
T2CC8 001:209 JLINK_IsHalted()  returns FALSE (0001ms, 0751ms total)
T2CC8 001:211 JLINK_IsHalted()  returns FALSE (0001ms, 0751ms total)
T2CC8 001:213 JLINK_IsHalted()  returns FALSE (0001ms, 0751ms total)
T2CC8 001:215 JLINK_IsHalted()  returns FALSE (0001ms, 0751ms total)
T2CC8 001:217 JLINK_IsHalted()  returns FALSE (0001ms, 0751ms total)
T2CC8 001:219 JLINK_IsHalted()  returns FALSE (0001ms, 0751ms total)
T2CC8 001:221 JLINK_IsHalted()  returns FALSE (0001ms, 0751ms total)
T2CC8 001:223 JLINK_IsHalted()  returns FALSE (0001ms, 0751ms total)
T2CC8 001:225 JLINK_IsHalted()  returns FALSE (0001ms, 0751ms total)
T2CC8 001:227 JLINK_IsHalted()  returns FALSE (0001ms, 0751ms total)
T2CC8 001:229 JLINK_IsHalted()  returns FALSE (0001ms, 0751ms total)
T2CC8 001:231 JLINK_IsHalted()  returns FALSE (0001ms, 0751ms total)
T2CC8 001:233 JLINK_IsHalted()  returns FALSE (0001ms, 0751ms total)
T2CC8 001:235 JLINK_IsHalted()  returns FALSE (0001ms, 0751ms total)
T2CC8 001:237 JLINK_IsHalted()  returns FALSE (0001ms, 0751ms total)
T2CC8 001:239 JLINK_IsHalted()  returns FALSE (0001ms, 0751ms total)
T2CC8 001:241 JLINK_IsHalted()  returns FALSE (0001ms, 0751ms total)
T2CC8 001:243 JLINK_IsHalted()  returns FALSE (0001ms, 0751ms total)
T2CC8 001:245 JLINK_IsHalted()  returns FALSE (0001ms, 0751ms total)
T2CC8 001:247 JLINK_IsHalted()  returns FALSE (0001ms, 0751ms total)
T2CC8 001:249 JLINK_IsHalted()  returns FALSE (0001ms, 0751ms total)
T2CC8 001:251 JLINK_IsHalted()  returns FALSE (0001ms, 0751ms total)
T2CC8 001:253 JLINK_IsHalted()  returns FALSE (0001ms, 0751ms total)
T2CC8 001:255 JLINK_IsHalted()  returns FALSE (0001ms, 0751ms total)
T2CC8 001:257 JLINK_IsHalted()  returns FALSE (0001ms, 0751ms total)
T2CC8 001:259 JLINK_IsHalted()  returns FALSE (0001ms, 0751ms total)
T2CC8 001:261 JLINK_IsHalted()  returns FALSE (0001ms, 0751ms total)
T2CC8 001:263 JLINK_IsHalted()  returns FALSE (0001ms, 0751ms total)
T2CC8 001:265 JLINK_IsHalted()  returns FALSE (0001ms, 0751ms total)
T2CC8 001:267 JLINK_IsHalted()  returns FALSE (0001ms, 0751ms total)
T2CC8 001:269 JLINK_IsHalted()  returns FALSE (0001ms, 0751ms total)
T2CC8 001:271 JLINK_IsHalted()  returns FALSE (0001ms, 0751ms total)
T2CC8 001:273 JLINK_IsHalted()  returns FALSE (0001ms, 0751ms total)
T2CC8 001:275 JLINK_IsHalted()  returns FALSE (0001ms, 0751ms total)
T2CC8 001:277 JLINK_IsHalted()  returns FALSE (0001ms, 0751ms total)
T2CC8 001:279 JLINK_IsHalted()  returns FALSE (0001ms, 0751ms total)
T2CC8 001:281 JLINK_IsHalted()  returns FALSE (0001ms, 0751ms total)
T2CC8 001:283 JLINK_IsHalted()  returns FALSE (0001ms, 0751ms total)
T2CC8 001:285 JLINK_IsHalted()  returns FALSE (0001ms, 0751ms total)
T2CC8 001:287 JLINK_IsHalted() -- CPU_ReadMem(2 bytes @ 0x20000000)  returns TRUE (0004ms, 0754ms total)
T2CC8 001:291 JLINK_ReadReg(R15 (PC))  returns 0x20000000 (0000ms, 0750ms total)
T2CC8 001:291 JLINK_ClrBPEx(BPHandle = 0x00000003)  returns 0x00 (0000ms, 0750ms total)
T2CC8 001:291 JLINK_ReadReg(R0)  returns 0x00000000 (0000ms, 0750ms total)
T2CC8 001:291 JLINK_WriteReg(R0, 0x00000001)  returns 0x00 (0000ms, 0750ms total)
T2CC8 001:291 JLINK_WriteReg(R1, 0x00004000)  returns 0x00 (0000ms, 0750ms total)
T2CC8 001:291 JLINK_WriteReg(R2, 0x000000FF)  returns 0x00 (0000ms, 0750ms total)
T2CC8 001:291 JLINK_WriteReg(R3, 0x00000000)  returns 0x00 (0000ms, 0750ms total)
T2CC8 001:291 JLINK_WriteReg(R4, 0x00000000)  returns 0x00 (0000ms, 0750ms total)
T2CC8 001:291 JLINK_WriteReg(R5, 0x00000000)  returns 0x00 (0000ms, 0750ms total)
T2CC8 001:291 JLINK_WriteReg(R6, 0x00000000)  returns 0x00 (0000ms, 0750ms total)
T2CC8 001:291 JLINK_WriteReg(R7, 0x00000000)  returns 0x00 (0000ms, 0750ms total)
T2CC8 001:291 JLINK_WriteReg(R8, 0x00000000)  returns 0x00 (0000ms, 0750ms total)
T2CC8 001:291 JLINK_WriteReg(R9, 0x2000017C)  returns 0x00 (0000ms, 0750ms total)
T2CC8 001:291 JLINK_WriteReg(R10, 0x00000000)  returns 0x00 (0000ms, 0750ms total)
T2CC8 001:291 JLINK_WriteReg(R11, 0x00000000)  returns 0x00 (0000ms, 0750ms total)
T2CC8 001:291 JLINK_WriteReg(R12, 0x00000000)  returns 0x00 (0000ms, 0750ms total)
T2CC8 001:291 JLINK_WriteReg(R13 (SP), 0x20001000)  returns 0x00 (0000ms, 0750ms total)
T2CC8 001:291 JLINK_WriteReg(R14, 0x20000001)  returns 0x00 (0000ms, 0750ms total)
T2CC8 001:291 JLINK_WriteReg(R15 (PC), 0x20000082)  returns 0x00 (0000ms, 0750ms total)
T2CC8 001:291 JLINK_WriteReg(XPSR, 0x01000000)  returns 0x00 (0000ms, 0750ms total)
T2CC8 001:291 JLINK_WriteReg(MSP, 0x20001000)  returns 0x00 (0000ms, 0750ms total)
T2CC8 001:291 JLINK_WriteReg(PSP, 0x20001000)  returns 0x00 (0000ms, 0750ms total)
T2CC8 001:291 JLINK_WriteReg(CFBP, 0x00000000)  returns 0x00 (0000ms, 0750ms total)
T2CC8 001:291 JLINK_SetBPEx(Addr = 0x20000000, Type = 0xFFFFFFF2)  returns 0x00000004 (0000ms, 0750ms total)
T2CC8 001:291 JLINK_Go() (0003ms, 0753ms total)
T2CC8 001:294 JLINK_IsHalted() -- CPU_ReadMem(2 bytes @ 0x20000000)  returns TRUE (0004ms, 0757ms total)
T2CC8 001:298 JLINK_ReadReg(R15 (PC))  returns 0x20000000 (0000ms, 0753ms total)
T2CC8 001:298 JLINK_ClrBPEx(BPHandle = 0x00000004)  returns 0x00 (0000ms, 0753ms total)
T2CC8 001:298 JLINK_ReadReg(R0)  returns 0x00000000 (0000ms, 0753ms total)
T2CC8 001:351 JLINK_WriteMem(0x20000000, 0x0180 Bytes, ...) - Data: 00 BE 0A E0 0D 78 2D 06 68 40 08 24 40 00 00 D3 ... -- CPU_WriteMem(384 bytes @ 0x20000000)  returns 0x180 (0001ms, 0754ms total)
T2CC8 001:352 JLINK_WriteReg(R0, 0x08000000)  returns 0x00 (0000ms, 0754ms total)
T2CC8 001:352 JLINK_WriteReg(R1, 0x007A1200)  returns 0x00 (0000ms, 0754ms total)
T2CC8 001:352 JLINK_WriteReg(R2, 0x00000002)  returns 0x00 (0000ms, 0754ms total)
T2CC8 001:352 JLINK_WriteReg(R3, 0x00000000)  returns 0x00 (0000ms, 0754ms total)
T2CC8 001:352 JLINK_WriteReg(R4, 0x00000000)  returns 0x00 (0000ms, 0754ms total)
T2CC8 001:352 JLINK_WriteReg(R5, 0x00000000)  returns 0x00 (0000ms, 0754ms total)
T2CC8 001:352 JLINK_WriteReg(R6, 0x00000000)  returns 0x00 (0000ms, 0754ms total)
T2CC8 001:353 JLINK_WriteReg(R7, 0x00000000)  returns 0x00 (0000ms, 0754ms total)
T2CC8 001:353 JLINK_WriteReg(R8, 0x00000000)  returns 0x00 (0000ms, 0754ms total)
T2CC8 001:353 JLINK_WriteReg(R9, 0x2000017C)  returns 0x00 (0000ms, 0754ms total)
T2CC8 001:353 JLINK_WriteReg(R10, 0x00000000)  returns 0x00 (0000ms, 0754ms total)
T2CC8 001:353 JLINK_WriteReg(R11, 0x00000000)  returns 0x00 (0000ms, 0754ms total)
T2CC8 001:353 JLINK_WriteReg(R12, 0x00000000)  returns 0x00 (0000ms, 0754ms total)
T2CC8 001:353 JLINK_WriteReg(R13 (SP), 0x20001000)  returns 0x00 (0000ms, 0754ms total)
T2CC8 001:353 JLINK_WriteReg(R14, 0x20000001)  returns 0x00 (0000ms, 0754ms total)
T2CC8 001:353 JLINK_WriteReg(R15 (PC), 0x20000054)  returns 0x00 (0000ms, 0754ms total)
T2CC8 001:353 JLINK_WriteReg(XPSR, 0x01000000)  returns 0x00 (0000ms, 0754ms total)
T2CC8 001:353 JLINK_WriteReg(MSP, 0x20001000)  returns 0x00 (0000ms, 0754ms total)
T2CC8 001:353 JLINK_WriteReg(PSP, 0x20001000)  returns 0x00 (0000ms, 0754ms total)
T2CC8 001:353 JLINK_WriteReg(CFBP, 0x00000000)  returns 0x00 (0000ms, 0754ms total)
T2CC8 001:353 JLINK_SetBPEx(Addr = 0x20000000, Type = 0xFFFFFFF2) -- CPU_ReadMem(2 bytes @ 0x20000000)  returns 0x00000005 (0000ms, 0754ms total)
T2CC8 001:353 JLINK_Go() -- CPU_WriteMem(2 bytes @ 0x20000000) (0003ms, 0757ms total)
T2CC8 001:356 JLINK_IsHalted() -- CPU_ReadMem(2 bytes @ 0x20000000)  returns TRUE (0004ms, 0761ms total)
T2CC8 001:360 JLINK_ReadReg(R15 (PC))  returns 0x20000000 (0000ms, 0757ms total)
T2CC8 001:360 JLINK_ClrBPEx(BPHandle = 0x00000005)  returns 0x00 (0000ms, 0757ms total)
T2CC8 001:360 JLINK_ReadReg(R0)  returns 0x00000000 (0000ms, 0757ms total)
T2CC8 001:361 JLINK_WriteMem(0x20000180, 0x0400 Bytes, ...) - Data: 90 06 00 20 31 02 00 08 09 1A 00 08 0B 1A 00 08 ... -- CPU_WriteMem(1024 bytes @ 0x20000180)  returns 0x400 (0003ms, 0760ms total)
T2CC8 001:364 JLINK_WriteReg(R0, 0x08000000)  returns 0x00 (0000ms, 0760ms total)
T2CC8 001:364 JLINK_WriteReg(R1, 0x00000400)  returns 0x00 (0000ms, 0760ms total)
T2CC8 001:364 JLINK_WriteReg(R2, 0x20000180)  returns 0x00 (0000ms, 0760ms total)
T2CC8 001:364 JLINK_WriteReg(R3, 0x00000000)  returns 0x00 (0000ms, 0760ms total)
T2CC8 001:364 JLINK_WriteReg(R4, 0x00000000)  returns 0x00 (0000ms, 0760ms total)
T2CC8 001:364 JLINK_WriteReg(R5, 0x00000000)  returns 0x00 (0000ms, 0760ms total)
T2CC8 001:364 JLINK_WriteReg(R6, 0x00000000)  returns 0x00 (0000ms, 0760ms total)
T2CC8 001:364 JLINK_WriteReg(R7, 0x00000000)  returns 0x00 (0000ms, 0760ms total)
T2CC8 001:364 JLINK_WriteReg(R8, 0x00000000)  returns 0x00 (0000ms, 0760ms total)
T2CC8 001:364 JLINK_WriteReg(R9, 0x2000017C)  returns 0x00 (0001ms, 0761ms total)
T2CC8 001:365 JLINK_WriteReg(R10, 0x00000000)  returns 0x00 (0000ms, 0761ms total)
T2CC8 001:365 JLINK_WriteReg(R11, 0x00000000)  returns 0x00 (0000ms, 0761ms total)
T2CC8 001:365 JLINK_WriteReg(R12, 0x00000000)  returns 0x00 (0000ms, 0761ms total)
T2CC8 001:365 JLINK_WriteReg(R13 (SP), 0x20001000)  returns 0x00 (0000ms, 0761ms total)
T2CC8 001:365 JLINK_WriteReg(R14, 0x20000001)  returns 0x00 (0000ms, 0761ms total)
T2CC8 001:365 JLINK_WriteReg(R15 (PC), 0x20000108)  returns 0x00 (0000ms, 0761ms total)
T2CC8 001:365 JLINK_WriteReg(XPSR, 0x01000000)  returns 0x00 (0000ms, 0761ms total)
T2CC8 001:365 JLINK_WriteReg(MSP, 0x20001000)  returns 0x00 (0000ms, 0761ms total)
T2CC8 001:365 JLINK_WriteReg(PSP, 0x20001000)  returns 0x00 (0000ms, 0761ms total)
T2CC8 001:365 JLINK_WriteReg(CFBP, 0x00000000)  returns 0x00 (0000ms, 0761ms total)
T2CC8 001:365 JLINK_SetBPEx(Addr = 0x20000000, Type = 0xFFFFFFF2)  returns 0x00000006 (0000ms, 0761ms total)
T2CC8 001:365 JLINK_Go() (0001ms, 0762ms total)
T2CC8 001:366 JLINK_IsHalted()  returns FALSE (0002ms, 0764ms total)
T2CC8 001:370 JLINK_IsHalted()  returns FALSE (0001ms, 0763ms total)
T2CC8 001:372 JLINK_IsHalted() -- CPU_ReadMem(2 bytes @ 0x20000000)  returns TRUE (0004ms, 0766ms total)
T2CC8 001:376 JLINK_ReadReg(R15 (PC))  returns 0x20000000 (0000ms, 0762ms total)
T2CC8 001:376 JLINK_ClrBPEx(BPHandle = 0x00000006)  returns 0x00 (0000ms, 0762ms total)
T2CC8 001:376 JLINK_ReadReg(R0)  returns 0x00000000 (0000ms, 0762ms total)
T2CC8 001:376 JLINK_WriteMem(0x20000180, 0x0400 Bytes, ...) - Data: 08 D1 01 21 80 20 00 F0 32 FB 00 21 80 20 00 F0 ... -- CPU_WriteMem(1024 bytes @ 0x20000180)  returns 0x400 (0004ms, 0766ms total)
T2CC8 001:380 JLINK_WriteReg(R0, 0x08000400)  returns 0x00 (0000ms, 0766ms total)
T2CC8 001:380 JLINK_WriteReg(R1, 0x00000400)  returns 0x00 (0000ms, 0766ms total)
T2CC8 001:380 JLINK_WriteReg(R2, 0x20000180)  returns 0x00 (0000ms, 0766ms total)
T2CC8 001:380 JLINK_WriteReg(R3, 0x00000000)  returns 0x00 (0000ms, 0766ms total)
T2CC8 001:380 JLINK_WriteReg(R4, 0x00000000)  returns 0x00 (0000ms, 0766ms total)
T2CC8 001:380 JLINK_WriteReg(R5, 0x00000000)  returns 0x00 (0000ms, 0766ms total)
T2CC8 001:380 JLINK_WriteReg(R6, 0x00000000)  returns 0x00 (0000ms, 0766ms total)
T2CC8 001:380 JLINK_WriteReg(R7, 0x00000000)  returns 0x00 (0000ms, 0766ms total)
T2CC8 001:380 JLINK_WriteReg(R8, 0x00000000)  returns 0x00 (0000ms, 0766ms total)
T2CC8 001:380 JLINK_WriteReg(R9, 0x2000017C)  returns 0x00 (0000ms, 0766ms total)
T2CC8 001:380 JLINK_WriteReg(R10, 0x00000000)  returns 0x00 (0000ms, 0766ms total)
T2CC8 001:380 JLINK_WriteReg(R11, 0x00000000)  returns 0x00 (0000ms, 0766ms total)
T2CC8 001:380 JLINK_WriteReg(R12, 0x00000000)  returns 0x00 (0000ms, 0766ms total)
T2CC8 001:380 JLINK_WriteReg(R13 (SP), 0x20001000)  returns 0x00 (0000ms, 0766ms total)
T2CC8 001:380 JLINK_WriteReg(R14, 0x20000001)  returns 0x00 (0000ms, 0766ms total)
T2CC8 001:380 JLINK_WriteReg(R15 (PC), 0x20000108)  returns 0x00 (0000ms, 0766ms total)
T2CC8 001:380 JLINK_WriteReg(XPSR, 0x01000000)  returns 0x00 (0000ms, 0766ms total)
T2CC8 001:380 JLINK_WriteReg(MSP, 0x20001000)  returns 0x00 (0000ms, 0766ms total)
T2CC8 001:380 JLINK_WriteReg(PSP, 0x20001000)  returns 0x00 (0000ms, 0766ms total)
T2CC8 001:380 JLINK_WriteReg(CFBP, 0x00000000)  returns 0x00 (0000ms, 0766ms total)
T2CC8 001:380 JLINK_SetBPEx(Addr = 0x20000000, Type = 0xFFFFFFF2)  returns 0x00000007 (0000ms, 0766ms total)
T2CC8 001:380 JLINK_Go() (0002ms, 0768ms total)
T2CC8 001:382 JLINK_IsHalted()  returns FALSE (0001ms, 0769ms total)
T2CC8 001:384 JLINK_IsHalted()  returns FALSE (0000ms, 0768ms total)
T2CC8 001:385 JLINK_IsHalted()  returns FALSE (0000ms, 0768ms total)
T2CC8 001:386 JLINK_IsHalted() -- CPU_ReadMem(2 bytes @ 0x20000000)  returns TRUE (0003ms, 0771ms total)
T2CC8 001:389 JLINK_ReadReg(R15 (PC))  returns 0x20000000 (0000ms, 0768ms total)
T2CC8 001:389 JLINK_ClrBPEx(BPHandle = 0x00000007)  returns 0x00 (0000ms, 0768ms total)
T2CC8 001:389 JLINK_ReadReg(R0)  returns 0x00000000 (0000ms, 0768ms total)
T2CC8 001:389 JLINK_WriteMem(0x20000180, 0x0400 Bytes, ...) - Data: 00 26 02 23 71 4F 08 37 3F 68 07 F0 0C 01 21 B1 ... -- CPU_WriteMem(1024 bytes @ 0x20000180)  returns 0x400 (0004ms, 0772ms total)
T2CC8 001:393 JLINK_WriteReg(R0, 0x08000800)  returns 0x00 (0000ms, 0772ms total)
T2CC8 001:393 JLINK_WriteReg(R1, 0x00000400)  returns 0x00 (0000ms, 0772ms total)
T2CC8 001:393 JLINK_WriteReg(R2, 0x20000180)  returns 0x00 (0000ms, 0772ms total)
T2CC8 001:393 JLINK_WriteReg(R3, 0x00000000)  returns 0x00 (0000ms, 0772ms total)
T2CC8 001:393 JLINK_WriteReg(R4, 0x00000000)  returns 0x00 (0000ms, 0772ms total)
T2CC8 001:393 JLINK_WriteReg(R5, 0x00000000)  returns 0x00 (0000ms, 0772ms total)
T2CC8 001:393 JLINK_WriteReg(R6, 0x00000000)  returns 0x00 (0000ms, 0772ms total)
T2CC8 001:393 JLINK_WriteReg(R7, 0x00000000)  returns 0x00 (0000ms, 0772ms total)
T2CC8 001:393 JLINK_WriteReg(R8, 0x00000000)  returns 0x00 (0000ms, 0772ms total)
T2CC8 001:393 JLINK_WriteReg(R9, 0x2000017C)  returns 0x00 (0000ms, 0772ms total)
T2CC8 001:393 JLINK_WriteReg(R10, 0x00000000)  returns 0x00 (0000ms, 0772ms total)
T2CC8 001:393 JLINK_WriteReg(R11, 0x00000000)  returns 0x00 (0000ms, 0772ms total)
T2CC8 001:393 JLINK_WriteReg(R12, 0x00000000)  returns 0x00 (0000ms, 0772ms total)
T2CC8 001:393 JLINK_WriteReg(R13 (SP), 0x20001000)  returns 0x00 (0000ms, 0772ms total)
T2CC8 001:393 JLINK_WriteReg(R14, 0x20000001)  returns 0x00 (0000ms, 0772ms total)
T2CC8 001:393 JLINK_WriteReg(R15 (PC), 0x20000108)  returns 0x00 (0000ms, 0772ms total)
T2CC8 001:393 JLINK_WriteReg(XPSR, 0x01000000)  returns 0x00 (0000ms, 0772ms total)
T2CC8 001:393 JLINK_WriteReg(MSP, 0x20001000)  returns 0x00 (0000ms, 0772ms total)
T2CC8 001:393 JLINK_WriteReg(PSP, 0x20001000)  returns 0x00 (0000ms, 0772ms total)
T2CC8 001:393 JLINK_WriteReg(CFBP, 0x00000000)  returns 0x00 (0000ms, 0772ms total)
T2CC8 001:393 JLINK_SetBPEx(Addr = 0x20000000, Type = 0xFFFFFFF2)  returns 0x00000008 (0000ms, 0772ms total)
T2CC8 001:393 JLINK_Go() (0002ms, 0774ms total)
T2CC8 001:395 JLINK_IsHalted()  returns FALSE (0001ms, 0775ms total)
T2CC8 001:397 JLINK_IsHalted()  returns FALSE (0000ms, 0774ms total)
T2CC8 001:398 JLINK_IsHalted()  returns FALSE (0000ms, 0774ms total)
T2CC8 001:399 JLINK_IsHalted()  returns FALSE (0000ms, 0774ms total)
T2CC8 001:400 JLINK_IsHalted() -- CPU_ReadMem(2 bytes @ 0x20000000)  returns TRUE (0003ms, 0777ms total)
T2CC8 001:403 JLINK_ReadReg(R15 (PC))  returns 0x20000000 (0000ms, 0774ms total)
T2CC8 001:403 JLINK_ClrBPEx(BPHandle = 0x00000008)  returns 0x00 (0000ms, 0774ms total)
T2CC8 001:403 JLINK_ReadReg(R0)  returns 0x00000000 (0000ms, 0774ms total)
T2CC8 001:404 JLINK_WriteMem(0x20000180, 0x0400 Bytes, ...) - Data: 12 78 82 43 0D 4B 27 3B 1A 70 70 47 0B 48 40 30 ... -- CPU_WriteMem(1024 bytes @ 0x20000180)  returns 0x400 (0004ms, 0778ms total)
T2CC8 001:408 JLINK_WriteReg(R0, 0x08000C00)  returns 0x00 (0000ms, 0778ms total)
T2CC8 001:408 JLINK_WriteReg(R1, 0x00000400)  returns 0x00 (0000ms, 0778ms total)
T2CC8 001:408 JLINK_WriteReg(R2, 0x20000180)  returns 0x00 (0000ms, 0778ms total)
T2CC8 001:408 JLINK_WriteReg(R3, 0x00000000)  returns 0x00 (0000ms, 0778ms total)
T2CC8 001:408 JLINK_WriteReg(R4, 0x00000000)  returns 0x00 (0000ms, 0778ms total)
T2CC8 001:408 JLINK_WriteReg(R5, 0x00000000)  returns 0x00 (0000ms, 0778ms total)
T2CC8 001:408 JLINK_WriteReg(R6, 0x00000000)  returns 0x00 (0000ms, 0778ms total)
T2CC8 001:408 JLINK_WriteReg(R7, 0x00000000)  returns 0x00 (0000ms, 0778ms total)
T2CC8 001:408 JLINK_WriteReg(R8, 0x00000000)  returns 0x00 (0000ms, 0778ms total)
T2CC8 001:408 JLINK_WriteReg(R9, 0x2000017C)  returns 0x00 (0000ms, 0778ms total)
T2CC8 001:408 JLINK_WriteReg(R10, 0x00000000)  returns 0x00 (0000ms, 0778ms total)
T2CC8 001:408 JLINK_WriteReg(R11, 0x00000000)  returns 0x00 (0000ms, 0778ms total)
T2CC8 001:408 JLINK_WriteReg(R12, 0x00000000)  returns 0x00 (0000ms, 0778ms total)
T2CC8 001:408 JLINK_WriteReg(R13 (SP), 0x20001000)  returns 0x00 (0000ms, 0778ms total)
T2CC8 001:408 JLINK_WriteReg(R14, 0x20000001)  returns 0x00 (0000ms, 0778ms total)
T2CC8 001:408 JLINK_WriteReg(R15 (PC), 0x20000108)  returns 0x00 (0000ms, 0778ms total)
T2CC8 001:408 JLINK_WriteReg(XPSR, 0x01000000)  returns 0x00 (0000ms, 0778ms total)
T2CC8 001:408 JLINK_WriteReg(MSP, 0x20001000)  returns 0x00 (0000ms, 0778ms total)
T2CC8 001:408 JLINK_WriteReg(PSP, 0x20001000)  returns 0x00 (0000ms, 0778ms total)
T2CC8 001:408 JLINK_WriteReg(CFBP, 0x00000000)  returns 0x00 (0000ms, 0778ms total)
T2CC8 001:408 JLINK_SetBPEx(Addr = 0x20000000, Type = 0xFFFFFFF2)  returns 0x00000009 (0000ms, 0778ms total)
T2CC8 001:408 JLINK_Go() (0002ms, 0780ms total)
T2CC8 001:410 JLINK_IsHalted()  returns FALSE (0001ms, 0781ms total)
T2CC8 001:412 JLINK_IsHalted()  returns FALSE (0001ms, 0781ms total)
T2CC8 001:414 JLINK_IsHalted() -- CPU_ReadMem(2 bytes @ 0x20000000)  returns TRUE (0004ms, 0784ms total)
T2CC8 001:418 JLINK_ReadReg(R15 (PC))  returns 0x20000000 (0000ms, 0780ms total)
T2CC8 001:418 JLINK_ClrBPEx(BPHandle = 0x00000009)  returns 0x00 (0000ms, 0780ms total)
T2CC8 001:418 JLINK_ReadReg(R0)  returns 0x00000000 (0000ms, 0780ms total)
T2CC8 001:418 JLINK_WriteMem(0x20000180, 0x0400 Bytes, ...) - Data: 90 8A 70 47 01 46 08 8A 70 47 1A B1 83 88 0B 43 ... -- CPU_WriteMem(1024 bytes @ 0x20000180)  returns 0x400 (0004ms, 0784ms total)
T2CC8 001:422 JLINK_WriteReg(R0, 0x08001000)  returns 0x00 (0000ms, 0784ms total)
T2CC8 001:422 JLINK_WriteReg(R1, 0x00000400)  returns 0x00 (0000ms, 0784ms total)
T2CC8 001:422 JLINK_WriteReg(R2, 0x20000180)  returns 0x00 (0000ms, 0784ms total)
T2CC8 001:422 JLINK_WriteReg(R3, 0x00000000)  returns 0x00 (0000ms, 0784ms total)
T2CC8 001:422 JLINK_WriteReg(R4, 0x00000000)  returns 0x00 (0000ms, 0784ms total)
T2CC8 001:422 JLINK_WriteReg(R5, 0x00000000)  returns 0x00 (0000ms, 0784ms total)
T2CC8 001:422 JLINK_WriteReg(R6, 0x00000000)  returns 0x00 (0000ms, 0784ms total)
T2CC8 001:422 JLINK_WriteReg(R7, 0x00000000)  returns 0x00 (0000ms, 0784ms total)
T2CC8 001:422 JLINK_WriteReg(R8, 0x00000000)  returns 0x00 (0000ms, 0784ms total)
T2CC8 001:422 JLINK_WriteReg(R9, 0x2000017C)  returns 0x00 (0000ms, 0784ms total)
T2CC8 001:422 JLINK_WriteReg(R10, 0x00000000)  returns 0x00 (0000ms, 0784ms total)
T2CC8 001:422 JLINK_WriteReg(R11, 0x00000000)  returns 0x00 (0000ms, 0784ms total)
T2CC8 001:422 JLINK_WriteReg(R12, 0x00000000)  returns 0x00 (0000ms, 0784ms total)
T2CC8 001:422 JLINK_WriteReg(R13 (SP), 0x20001000)  returns 0x00 (0000ms, 0784ms total)
T2CC8 001:422 JLINK_WriteReg(R14, 0x20000001)  returns 0x00 (0000ms, 0784ms total)
T2CC8 001:422 JLINK_WriteReg(R15 (PC), 0x20000108)  returns 0x00 (0000ms, 0784ms total)
T2CC8 001:422 JLINK_WriteReg(XPSR, 0x01000000)  returns 0x00 (0000ms, 0784ms total)
T2CC8 001:422 JLINK_WriteReg(MSP, 0x20001000)  returns 0x00 (0000ms, 0784ms total)
T2CC8 001:422 JLINK_WriteReg(PSP, 0x20001000)  returns 0x00 (0000ms, 0784ms total)
T2CC8 001:422 JLINK_WriteReg(CFBP, 0x00000000)  returns 0x00 (0000ms, 0784ms total)
T2CC8 001:422 JLINK_SetBPEx(Addr = 0x20000000, Type = 0xFFFFFFF2)  returns 0x0000000A (0000ms, 0784ms total)
T2CC8 001:422 JLINK_Go() (0002ms, 0786ms total)
T2CC8 001:424 JLINK_IsHalted()  returns FALSE (0001ms, 0787ms total)
T2CC8 001:426 JLINK_IsHalted()  returns FALSE (0001ms, 0787ms total)
T2CC8 001:428 JLINK_IsHalted() -- CPU_ReadMem(2 bytes @ 0x20000000)  returns TRUE (0004ms, 0790ms total)
T2CC8 001:432 JLINK_ReadReg(R15 (PC))  returns 0x20000000 (0000ms, 0786ms total)
T2CC8 001:432 JLINK_ClrBPEx(BPHandle = 0x0000000A)  returns 0x00 (0000ms, 0786ms total)
T2CC8 001:432 JLINK_ReadReg(R0)  returns 0x00000000 (0000ms, 0786ms total)
T2CC8 001:432 JLINK_WriteMem(0x20000180, 0x0400 Bytes, ...) - Data: 02 E0 83 8A 8B 43 83 82 70 47 F0 B5 03 46 00 24 ... -- CPU_WriteMem(1024 bytes @ 0x20000180)  returns 0x400 (0004ms, 0790ms total)
T2CC8 001:436 JLINK_WriteReg(R0, 0x08001400)  returns 0x00 (0000ms, 0790ms total)
T2CC8 001:436 JLINK_WriteReg(R1, 0x00000400)  returns 0x00 (0000ms, 0790ms total)
T2CC8 001:436 JLINK_WriteReg(R2, 0x20000180)  returns 0x00 (0000ms, 0790ms total)
T2CC8 001:436 JLINK_WriteReg(R3, 0x00000000)  returns 0x00 (0000ms, 0790ms total)
T2CC8 001:436 JLINK_WriteReg(R4, 0x00000000)  returns 0x00 (0000ms, 0790ms total)
T2CC8 001:436 JLINK_WriteReg(R5, 0x00000000)  returns 0x00 (0000ms, 0790ms total)
T2CC8 001:436 JLINK_WriteReg(R6, 0x00000000)  returns 0x00 (0000ms, 0790ms total)
T2CC8 001:436 JLINK_WriteReg(R7, 0x00000000)  returns 0x00 (0000ms, 0790ms total)
T2CC8 001:436 JLINK_WriteReg(R8, 0x00000000)  returns 0x00 (0000ms, 0790ms total)
T2CC8 001:436 JLINK_WriteReg(R9, 0x2000017C)  returns 0x00 (0000ms, 0790ms total)
T2CC8 001:436 JLINK_WriteReg(R10, 0x00000000)  returns 0x00 (0000ms, 0790ms total)
T2CC8 001:436 JLINK_WriteReg(R11, 0x00000000)  returns 0x00 (0000ms, 0790ms total)
T2CC8 001:436 JLINK_WriteReg(R12, 0x00000000)  returns 0x00 (0000ms, 0790ms total)
T2CC8 001:436 JLINK_WriteReg(R13 (SP), 0x20001000)  returns 0x00 (0000ms, 0790ms total)
T2CC8 001:436 JLINK_WriteReg(R14, 0x20000001)  returns 0x00 (0000ms, 0790ms total)
T2CC8 001:436 JLINK_WriteReg(R15 (PC), 0x20000108)  returns 0x00 (0000ms, 0790ms total)
T2CC8 001:436 JLINK_WriteReg(XPSR, 0x01000000)  returns 0x00 (0000ms, 0790ms total)
T2CC8 001:436 JLINK_WriteReg(MSP, 0x20001000)  returns 0x00 (0000ms, 0790ms total)
T2CC8 001:436 JLINK_WriteReg(PSP, 0x20001000)  returns 0x00 (0000ms, 0790ms total)
T2CC8 001:436 JLINK_WriteReg(CFBP, 0x00000000)  returns 0x00 (0000ms, 0790ms total)
T2CC8 001:436 JLINK_SetBPEx(Addr = 0x20000000, Type = 0xFFFFFFF2)  returns 0x0000000B (0000ms, 0790ms total)
T2CC8 001:436 JLINK_Go() (0002ms, 0792ms total)
T2CC8 001:438 JLINK_IsHalted()  returns FALSE (0001ms, 0793ms total)
T2CC8 001:440 JLINK_IsHalted()  returns FALSE (0000ms, 0792ms total)
T2CC8 001:441 JLINK_IsHalted()  returns FALSE (0000ms, 0792ms total)
T2CC8 001:442 JLINK_IsHalted() -- CPU_ReadMem(2 bytes @ 0x20000000)  returns TRUE (0003ms, 0795ms total)
T2CC8 001:445 JLINK_ReadReg(R15 (PC))  returns 0x20000000 (0000ms, 0792ms total)
T2CC8 001:445 JLINK_ClrBPEx(BPHandle = 0x0000000B)  returns 0x00 (0000ms, 0792ms total)
T2CC8 001:445 JLINK_ReadReg(R0)  returns 0x00000000 (0000ms, 0792ms total)
T2CC8 001:445 JLINK_WriteMem(0x20000180, 0x0400 Bytes, ...) - Data: CB F8 04 20 00 90 01 20 8D F8 04 00 00 20 8D F8 ... -- CPU_WriteMem(1024 bytes @ 0x20000180)  returns 0x400 (0004ms, 0796ms total)
T2CC8 001:449 JLINK_WriteReg(R0, 0x08001800)  returns 0x00 (0000ms, 0796ms total)
T2CC8 001:449 JLINK_WriteReg(R1, 0x00000400)  returns 0x00 (0000ms, 0796ms total)
T2CC8 001:449 JLINK_WriteReg(R2, 0x20000180)  returns 0x00 (0000ms, 0796ms total)
T2CC8 001:449 JLINK_WriteReg(R3, 0x00000000)  returns 0x00 (0000ms, 0796ms total)
T2CC8 001:449 JLINK_WriteReg(R4, 0x00000000)  returns 0x00 (0000ms, 0796ms total)
T2CC8 001:449 JLINK_WriteReg(R5, 0x00000000)  returns 0x00 (0000ms, 0796ms total)
T2CC8 001:449 JLINK_WriteReg(R6, 0x00000000)  returns 0x00 (0000ms, 0796ms total)
T2CC8 001:449 JLINK_WriteReg(R7, 0x00000000)  returns 0x00 (0000ms, 0796ms total)
T2CC8 001:449 JLINK_WriteReg(R8, 0x00000000)  returns 0x00 (0000ms, 0796ms total)
T2CC8 001:449 JLINK_WriteReg(R9, 0x2000017C)  returns 0x00 (0000ms, 0796ms total)
T2CC8 001:449 JLINK_WriteReg(R10, 0x00000000)  returns 0x00 (0000ms, 0796ms total)
T2CC8 001:449 JLINK_WriteReg(R11, 0x00000000)  returns 0x00 (0000ms, 0796ms total)
T2CC8 001:450 JLINK_WriteReg(R12, 0x00000000)  returns 0x00 (0000ms, 0797ms total)
T2CC8 001:450 JLINK_WriteReg(R13 (SP), 0x20001000)  returns 0x00 (0000ms, 0797ms total)
T2CC8 001:450 JLINK_WriteReg(R14, 0x20000001)  returns 0x00 (0000ms, 0797ms total)
T2CC8 001:450 JLINK_WriteReg(R15 (PC), 0x20000108)  returns 0x00 (0000ms, 0797ms total)
T2CC8 001:450 JLINK_WriteReg(XPSR, 0x01000000)  returns 0x00 (0000ms, 0797ms total)
T2CC8 001:450 JLINK_WriteReg(MSP, 0x20001000)  returns 0x00 (0000ms, 0797ms total)
T2CC8 001:450 JLINK_WriteReg(PSP, 0x20001000)  returns 0x00 (0000ms, 0797ms total)
T2CC8 001:450 JLINK_WriteReg(CFBP, 0x00000000)  returns 0x00 (0000ms, 0797ms total)
T2CC8 001:450 JLINK_SetBPEx(Addr = 0x20000000, Type = 0xFFFFFFF2)  returns 0x0000000C (0000ms, 0797ms total)
T2CC8 001:450 JLINK_Go() (0002ms, 0799ms total)
T2CC8 001:452 JLINK_IsHalted()  returns FALSE (0001ms, 0800ms total)
T2CC8 001:454 JLINK_IsHalted()  returns FALSE (0000ms, 0799ms total)
T2CC8 001:455 JLINK_IsHalted()  returns FALSE (0000ms, 0799ms total)
T2CC8 001:456 JLINK_IsHalted()  returns FALSE (0000ms, 0799ms total)
T2CC8 001:458 JLINK_IsHalted() -- CPU_ReadMem(2 bytes @ 0x20000000)  returns TRUE (0004ms, 0803ms total)
T2CC8 001:462 JLINK_ReadReg(R15 (PC))  returns 0x20000000 (0000ms, 0799ms total)
T2CC8 001:462 JLINK_ClrBPEx(BPHandle = 0x0000000C)  returns 0x00 (0000ms, 0799ms total)
T2CC8 001:462 JLINK_ReadReg(R0)  returns 0x00000000 (0000ms, 0799ms total)
T2CC8 001:463 JLINK_WriteMem(0x20000180, 0x0400 Bytes, ...) - Data: 09 4E 35 60 70 BD 00 00 00 38 02 40 00 70 00 40 ... -- CPU_WriteMem(1024 bytes @ 0x20000180)  returns 0x400 (0004ms, 0803ms total)
T2CC8 001:467 JLINK_WriteReg(R0, 0x08001C00)  returns 0x00 (0000ms, 0803ms total)
T2CC8 001:467 JLINK_WriteReg(R1, 0x00000390)  returns 0x00 (0000ms, 0803ms total)
T2CC8 001:467 JLINK_WriteReg(R2, 0x20000180)  returns 0x00 (0000ms, 0803ms total)
T2CC8 001:467 JLINK_WriteReg(R3, 0x00000000)  returns 0x00 (0000ms, 0803ms total)
